T55DC 000:015.821   SEGGER J-Link V8.96 Log File
T55DC 000:015.908   DLL Compiled: Dec 18 2025 16:46:38
T55DC 000:015.911   Logging started @ 2026-02-23 08:52
T55DC 000:015.914   Process: C:\Keil_v5\UV4\UV4.exe
T55DC 000:015.924 - 15.917ms 
T55DC 000:015.931 JLINK_SetWarnOutHandler(...)
T55DC 000:015.934 - 0.004ms 
T55DC 000:015.938 JLINK_OpenEx(...)
T55DC 000:019.089   Firmware: J-Link V9 compiled May  7 2021 16:26:12
T55DC 000:019.629   Firmware: J-Link V9 compiled May  7 2021 16:26:12
T55DC 000:019.766   Decompressing FW timestamp took 110 us
T55DC 000:025.534   Hardware: V9.40
T55DC 000:025.551   S/N: 59404884
T55DC 000:025.556   OEM: SEGGER
T55DC 000:025.561   Feature(s): RDI, GDB, FlashDL, FlashBP, JFlash
T55DC 000:026.174   Bootloader: (FW returned invalid version)
T55DC 000:026.797   TELNET listener socket opened on port 19021
T55DC 000:026.897   WEBSRV WEBSRV_Init(): Starting webserver thread(s)
T55DC 000:027.065   WEBSRV Webserver running on local port 19080
T55DC 000:027.152   Looking for J-Link GUI Server exe at: C:\Keil_v5\ARM\Segger\JLinkGUIServer.exe
T55DC 000:027.212   Looking for J-Link GUI Server exe at: C:\Program Files\SEGGER\JLink_V896\JLinkGUIServer.exe
T55DC 000:027.233   Forking J-Link GUI Server: C:\Program Files\SEGGER\JLink_V896\JLinkGUIServer.exe
T55DC 000:064.667   J-Link GUI Server info: "J-Link GUI server V8.96 "
T55DC 000:082.273 - 66.329ms returns "O.K."
T55DC 000:082.313 JLINK_GetEmuCaps()
T55DC 000:082.318 - 0.004ms returns 0xB9FF7BBF
T55DC 000:082.323 JLINK_TIF_GetAvailable(...)
T55DC 000:082.542 - 0.219ms 
T55DC 000:082.550 JLINK_SetErrorOutHandler(...)
T55DC 000:082.554 - 0.003ms 
T55DC 000:082.580 JLINK_ExecCommand("ProjectFile = "D:\stm32_class_rtos_iot\1-STM32_IOT_RTOS\STM32_IOT_RTOS_CODE\MPT\TEST_05_Mongoose_http\MDK-ARM\JLinkSettings.ini"", ...). 
T55DC 000:093.783   Ref file found at: C:\Keil_v5\ARM\Segger\JLinkDevices.ref
T55DC 000:093.858   REF file references invalid XML file: C:\Program Files\SEGGER\JLink_V896\JLinkDevices.xml
T55DC 000:094.822 - 12.243ms returns 0x00
T55DC 000:094.907 JLINK_ExecCommand("Device = STM32F407VETx", ...). 
T55DC 000:096.034   Device "STM32F407VE" selected.
T55DC 000:096.258 - 1.345ms returns 0x00
T55DC 000:096.269 JLINK_ExecCommand("DisableConnectionTimeout", ...). 
T55DC 000:096.283   ERROR: Unknown command
T55DC 000:096.288 - 0.011ms returns 0x01
T55DC 000:096.294 JLINK_GetHardwareVersion()
T55DC 000:096.299 - 0.004ms returns 94000
T55DC 000:096.303 JLINK_GetDLLVersion()
T55DC 000:096.306 - 0.003ms returns 89600
T55DC 000:096.310 JLINK_GetOEMString(...)
T55DC 000:096.314 JLINK_GetFirmwareString(...)
T55DC 000:096.317 - 0.003ms 
T55DC 000:096.389 JLINK_GetDLLVersion()
T55DC 000:096.393 - 0.003ms returns 89600
T55DC 000:096.397 JLINK_GetCompileDateTime()
T55DC 000:096.400 - 0.003ms 
T55DC 000:096.418 JLINK_GetFirmwareString(...)
T55DC 000:096.421 - 0.003ms 
T55DC 000:096.438 JLINK_GetHardwareVersion()
T55DC 000:096.441 - 0.003ms returns 94000
T55DC 000:096.458 JLINK_GetSN()
T55DC 000:096.462 - 0.003ms returns 59404884
T55DC 000:096.478 JLINK_GetOEMString(...)
T55DC 000:096.564 JLINK_TIF_Select(JLINKARM_TIF_SWD)
T55DC 000:097.110 - 0.548ms returns 0x00
T55DC 000:097.118 JLINK_HasError()
T55DC 000:097.129 JLINK_SetSpeed(5000)
T55DC 000:097.198 - 0.070ms 
T55DC 000:097.204 JLINK_GetId()
T55DC 000:097.359   InitTarget() start
T55DC 000:097.366    J-Link Script File: Executing InitTarget()
T55DC 000:097.498   SWD selected. Executing JTAG -> SWD switching sequence.
T55DC 000:098.738   DAP initialized successfully.
T55DC 000:102.355   InitTarget() end - Took 4.94ms
T55DC 000:102.877   Found SW-DP with ID 0x2BA01477
T55DC 000:104.530   DPIDR: 0x2BA01477
T55DC 000:104.561   CoreSight SoC-400 or earlier
T55DC 000:104.581   Scanning AP map to find all available APs
T55DC 000:105.047   AP[1]: Stopped AP scan as end of AP map has been reached
T55DC 000:105.077   AP[0]: AHB-AP (IDR: 0x24770011, ADDR: 0x00000000)
T55DC 000:105.097   Iterating through AP map to find AHB-AP to use
T55DC 000:105.865   AP[0]: Core found
T55DC 000:105.946   AP[0]: AHB-AP ROM base: 0xE00FF000
T55DC 000:106.372   CPUID register: 0x410FC241. Implementer code: 0x41 (ARM)
T55DC 000:106.407   Found Cortex-M4 r0p1, Little endian.
T55DC 000:106.682   -- Max. mem block: 0x00010C20
T55DC 000:106.981   CPU_ReadMem(4 bytes @ 0xE000EDF0)
T55DC 000:107.204   CPU_ReadMem(4 bytes @ 0xE0002000)
T55DC 000:107.480   FPUnit: 6 code (BP) slots and 2 literal slots
T55DC 000:107.495   CPU_ReadMem(4 bytes @ 0xE000EDFC)
T55DC 000:107.715   CPU_WriteMem(4 bytes @ 0xE000EDFC)
T55DC 000:107.920   CPU_ReadMem(4 bytes @ 0xE0001000)
T55DC 000:108.172   CPU_WriteMem(4 bytes @ 0xE0001000)
T55DC 000:108.373   CPU_ReadMem(4 bytes @ 0xE000ED88)
T55DC 000:108.595   CPU_WriteMem(4 bytes @ 0xE000ED88)
T55DC 000:108.821   CPU_ReadMem(4 bytes @ 0xE000ED88)
T55DC 000:109.030   CPU_WriteMem(4 bytes @ 0xE000ED88)
T55DC 000:109.279   CoreSight components:
T55DC 000:109.301   ROMTbl[0] @ E00FF000
T55DC 000:109.307   CPU_ReadMem(64 bytes @ 0xE00FF000)
T55DC 000:109.834   CPU_ReadMem(32 bytes @ 0xE000EFE0)
T55DC 000:110.277   [0][0]: E000E000 CID B105E00D PID 000BB00C SCS-M7
T55DC 000:110.289   CPU_ReadMem(32 bytes @ 0xE0001FE0)
T55DC 000:110.663   [0][1]: E0001000 CID B105E00D PID 003BB002 DWT
T55DC 000:110.688   CPU_ReadMem(32 bytes @ 0xE0002FE0)
T55DC 000:111.064   [0][2]: E0002000 CID B105E00D PID 002BB003 FPB
T55DC 000:111.077   CPU_ReadMem(32 bytes @ 0xE0000FE0)
T55DC 000:111.473   [0][3]: E0000000 CID B105E00D PID 003BB001 ITM
T55DC 000:111.480   CPU_ReadMem(32 bytes @ 0xE0040FE0)
T55DC 000:111.845   [0][4]: E0040000 CID B105900D PID 000BB9A1 TPIU
T55DC 000:111.851   CPU_ReadMem(32 bytes @ 0xE0041FE0)
T55DC 000:112.267   [0][5]: E0041000 CID B105900D PID 000BB925 ETM
T55DC 000:112.455 - 15.250ms returns 0x2BA01477
T55DC 000:112.535 JLINK_GetDLLVersion()
T55DC 000:112.539 - 0.003ms returns 89600
T55DC 000:112.543 JLINK_CORE_GetFound()
T55DC 000:112.547 - 0.003ms returns 0xE0000FF
T55DC 000:112.552 JLINK_GetDebugInfo(0x100 = JLINKARM_ROM_TABLE_ADDR_INDEX)
T55DC 000:112.555   Value=0xE00FF000
T55DC 000:112.560 - 0.008ms returns 0
T55DC 000:112.583 JLINK_GetDebugInfo(0x100 = JLINKARM_ROM_TABLE_ADDR_INDEX)
T55DC 000:112.587   Value=0xE00FF000
T55DC 000:112.591 - 0.008ms returns 0
T55DC 000:112.595 JLINK_GetDebugInfo(0x101 = JLINKARM_DEBUG_INFO_ETM_ADDR_INDEX)
T55DC 000:112.598   Value=0xE0041000
T55DC 000:112.603 - 0.007ms returns 0
T55DC 000:112.611 JLINK_ReadMemEx(0xE0041FD0, 0x20 Bytes, Flags = 0x02000004)
T55DC 000:112.634   CPU_ReadMem(32 bytes @ 0xE0041FD0)
T55DC 000:112.988   Data:  04 00 00 00 00 00 00 00 00 00 00 00 00 00 00 00 ...
T55DC 000:112.997 - 0.383ms returns 32 (0x20)
T55DC 000:113.004 JLINK_GetDebugInfo(0x102 = JLINKARM_DEBUG_INFO_MTB_ADDR_INDEX)
T55DC 000:113.007   Value=0x00000000
T55DC 000:113.012 - 0.008ms returns 0
T55DC 000:113.016 JLINK_GetDebugInfo(0x103 = JLINKARM_DEBUG_INFO_TPIU_ADDR_INDEX)
T55DC 000:113.019   Value=0xE0040000
T55DC 000:113.024 - 0.008ms returns 0
T55DC 000:113.028 JLINK_GetDebugInfo(0x104 = JLINKARM_DEBUG_INFO_ITM_ADDR_INDEX)
T55DC 000:113.032   Value=0xE0000000
T55DC 000:113.036 - 0.008ms returns 0
T55DC 000:113.040 JLINK_GetDebugInfo(0x105 = JLINKARM_DEBUG_INFO_DWT_ADDR_INDEX)
T55DC 000:113.043   Value=0xE0001000
T55DC 000:113.048 - 0.007ms returns 0
T55DC 000:113.052 JLINK_GetDebugInfo(0x106 = JLINKARM_DEBUG_INFO_FPB_ADDR_INDEX)
T55DC 000:113.055   Value=0xE0002000
T55DC 000:113.060 - 0.008ms returns 0
T55DC 000:113.064 JLINK_GetDebugInfo(0x107 = JLINKARM_DEBUG_INFO_NVIC_ADDR_INDEX)
T55DC 000:113.067   Value=0xE000E000
T55DC 000:113.071 - 0.007ms returns 0
T55DC 000:113.075 JLINK_GetDebugInfo(0x10C = JLINKARM_DEBUG_INFO_DBG_ADDR_INDEX)
T55DC 000:113.078   Value=0xE000EDF0
T55DC 000:113.083 - 0.007ms returns 0
T55DC 000:113.087 JLINK_GetDebugInfo(0x01 = Unknown)
T55DC 000:113.090   Value=0x00000001
T55DC 000:113.094 - 0.007ms returns 0
T55DC 000:113.098 JLINK_ReadMemU32(0xE000ED00, 0x1 Items)
T55DC 000:113.104   CPU_ReadMem(4 bytes @ 0xE000ED00)
T55DC 000:113.339   Data:  41 C2 0F 41
T55DC 000:113.349   Debug reg: CPUID
T55DC 000:113.354 - 0.255ms returns 1 (0x1)
T55DC 000:113.359 JLINK_GetDebugInfo(0x10F = JLINKARM_DEBUG_INFO_HAS_CORTEX_M_SECURITY_EXT_INDEX)
T55DC 000:113.362   Value=0x00000000
T55DC 000:113.366 - 0.008ms returns 0
T55DC 000:113.370 JLINK_HasError()
T55DC 000:113.375 JLINK_SetResetType(JLINKARM_CM3_RESET_TYPE_NORMAL)
T55DC 000:113.378 - 0.003ms returns JLINKARM_CM3_RESET_TYPE_NORMAL
T55DC 000:113.382 JLINK_Reset()
T55DC 000:113.391   JLINK_GetResetTypeDesc
T55DC 000:113.395   - 0.003ms 
T55DC 000:113.428   Reset type: NORMAL (https://kb.segger.com/J-Link_Reset_Strategies)
T55DC 000:113.437   CPU is running
T55DC 000:113.442   CPU_WriteMem(4 bytes @ 0xE000EDF0)
T55DC 000:113.697   CPU is running
T55DC 000:113.702   CPU_WriteMem(4 bytes @ 0xE000EDFC)
T55DC 000:114.006   Reset: Halt core after reset via DEMCR.VC_CORERESET.
T55DC 000:114.333   Reset: Reset device via AIRCR.SYSRESETREQ.
T55DC 000:114.346   CPU is running
T55DC 000:114.353   CPU_WriteMem(4 bytes @ 0xE000ED0C)
T55DC 000:167.724   CPU_ReadMem(4 bytes @ 0xE000EDF0)
T55DC 000:167.963   CPU_ReadMem(4 bytes @ 0xE000EDF0)
T55DC 000:170.321   CPU_WriteMem(4 bytes @ 0xE000EDFC)
T55DC 000:177.131   CPU_ReadMem(4 bytes @ 0xE000EDF0)
T55DC 000:179.313   CPU_WriteMem(4 bytes @ 0xE0002000)
T55DC 000:179.596   CPU_ReadMem(4 bytes @ 0xE000EDFC)
T55DC 000:179.886   CPU_ReadMem(4 bytes @ 0xE0001000)
T55DC 000:180.276 - 66.893ms 
T55DC 000:180.372 JLINK_HasError()
T55DC 000:180.381 JLINK_ReadReg(R15 (PC))
T55DC 000:180.386 - 0.008ms returns 0x08000710
T55DC 000:180.390 JLINK_ReadReg(XPSR)
T55DC 000:180.394 - 0.003ms returns 0x01000000
T55DC 000:180.398 JLINK_Halt()
T55DC 000:180.402 - 0.003ms returns 0x00
T55DC 000:180.406 JLINK_ReadMemU32(0xE000EDF0, 0x1 Items)
T55DC 000:180.416   CPU_ReadMem(4 bytes @ 0xE000EDF0)
T55DC 000:180.633   Data:  03 00 03 00
T55DC 000:180.638   Debug reg: DHCSR
T55DC 000:180.643 - 0.236ms returns 1 (0x1)
T55DC 000:180.648 JLINK_WriteU32(0xE000EDF0, 0xA05F0003)
T55DC 000:180.651   Debug reg: DHCSR
T55DC 000:180.902   CPU_WriteMem(4 bytes @ 0xE000EDF0)
T55DC 000:181.171 - 0.523ms returns 0 (0x00000000)
T55DC 000:181.177 JLINK_WriteU32(0xE000EDFC, 0x01000000)
T55DC 000:181.181   Debug reg: DEMCR
T55DC 000:181.188   CPU_WriteMem(4 bytes @ 0xE000EDFC)
T55DC 000:181.396 - 0.218ms returns 0 (0x00000000)
T55DC 000:181.516 JLINK_GetHWStatus(...)
T55DC 000:181.643 - 0.131ms returns 0
T55DC 000:181.692 JLINK_GetNumBPUnits(Type = 0xFFFFFF00)
T55DC 000:181.696 - 0.004ms returns 0x06
T55DC 000:181.700 JLINK_GetNumBPUnits(Type = 0xF0)
T55DC 000:181.703 - 0.003ms returns 0x2000
T55DC 000:181.707 JLINK_GetNumWPUnits()
T55DC 000:181.710 - 0.003ms returns 4
T55DC 000:181.751 JLINK_GetSpeed()
T55DC 000:181.754 - 0.003ms returns 4000
T55DC 000:181.782 JLINK_ReadMemU32(0xE000E004, 0x1 Items)
T55DC 000:181.788   CPU_ReadMem(4 bytes @ 0xE000E004)
T55DC 000:182.000   Data:  02 00 00 00
T55DC 000:182.005 - 0.222ms returns 1 (0x1)
T55DC 000:182.009 JLINK_ReadMemU32(0xE000E004, 0x1 Items)
T55DC 000:182.014   CPU_ReadMem(4 bytes @ 0xE000E004)
T55DC 000:182.213   Data:  02 00 00 00
T55DC 000:182.227 - 0.217ms returns 1 (0x1)
T55DC 000:182.234 JLINK_WriteMemEx(0xE0001000, 0x0000001C Bytes, Flags = 0x02000004)
T55DC 000:182.238   Data:  01 00 00 00 00 00 00 00 00 00 00 00 00 00 00 00 ...
T55DC 000:182.259   CPU_WriteMem(28 bytes @ 0xE0001000)
T55DC 000:182.552 - 0.318ms returns 0x1C
T55DC 000:182.562 JLINK_HasError()
T55DC 000:182.567 JLINK_ReadReg(R15 (PC))
T55DC 000:182.571 - 0.004ms returns 0x08000710
T55DC 000:182.575 JLINK_ReadReg(XPSR)
T55DC 000:182.579 - 0.003ms returns 0x01000000
T55DC 000:184.865 JLINK_ReadMemEx(0xE0001004, 0x4 Bytes, Flags = 0x02000000)
T55DC 000:184.883   Data:  00 00 00 00
T55DC 000:184.890   Debug reg: DWT_CYCCNT
T55DC 000:184.897 - 0.032ms returns 4 (0x4)
T55DC 000:310.289 JLINK_HasError()
T55DC 000:310.311 JLINK_SetResetType(JLINKARM_CM3_RESET_TYPE_NORMAL)
T55DC 000:310.317 - 0.005ms returns JLINKARM_CM3_RESET_TYPE_NORMAL
T55DC 000:310.327 JLINK_Reset()
T55DC 000:310.339   JLINK_GetResetTypeDesc
T55DC 000:310.343   - 0.003ms 
T55DC 000:310.377   Reset type: NORMAL (https://kb.segger.com/J-Link_Reset_Strategies)
T55DC 000:310.385   CPU_WriteMem(4 bytes @ 0xE000EDF0)
T55DC 000:310.682   CPU_WriteMem(4 bytes @ 0xE000EDFC)
T55DC 000:310.954   Reset: Halt core after reset via DEMCR.VC_CORERESET.
T55DC 000:311.320   Reset: Reset device via AIRCR.SYSRESETREQ.
T55DC 000:311.329   CPU_WriteMem(4 bytes @ 0xE000ED0C)
T55DC 000:363.964   CPU_ReadMem(4 bytes @ 0xE000EDF0)
T55DC 000:364.174   CPU_ReadMem(4 bytes @ 0xE000EDF0)
T55DC 000:364.378   CPU_WriteMem(4 bytes @ 0xE000EDFC)
T55DC 000:369.851   CPU_ReadMem(4 bytes @ 0xE000EDF0)
T55DC 000:371.922   CPU_WriteMem(4 bytes @ 0xE0002000)
T55DC 000:372.199   CPU_ReadMem(4 bytes @ 0xE000EDFC)
T55DC 000:372.408   CPU_ReadMem(4 bytes @ 0xE0001000)
T55DC 000:372.618 - 62.291ms 
T55DC 000:372.693 JLINK_HasError()
T55DC 000:372.699 JLINK_ReadReg(R15 (PC))
T55DC 000:372.705 - 0.005ms returns 0x08000710
T55DC 000:372.709 JLINK_ReadReg(XPSR)
T55DC 000:372.712 - 0.003ms returns 0x01000000
T55DC 000:373.062 JLINK_ReadMemEx(0x08000710, 0x3C Bytes, Flags = 0x02000000)
T55DC 000:373.074   CPU_ReadMem(128 bytes @ 0x08000700)
T55DC 000:373.830    -- Updating C cache (128 bytes @ 0x08000700)
T55DC 000:373.837    -- Read from C cache (60 bytes @ 0x08000710)
T55DC 000:373.844   Data:  06 48 80 47 06 48 00 47 FE E7 FE E7 FE E7 FE E7 ...
T55DC 000:373.849 - 0.786ms returns 60 (0x3C)
T55DC 000:373.854 JLINK_ReadMemEx(0x08000710, 0x2 Bytes, Flags = 0x02000000)
T55DC 000:373.858    -- Read from C cache (2 bytes @ 0x08000710)
T55DC 000:373.863   Data:  06 48
T55DC 000:373.868 - 0.013ms returns 2 (0x2)
T55DC 000:373.928 JLINK_ReadMemEx(0x08000712, 0x2 Bytes, Flags = 0x02000000)
T55DC 000:373.932    -- Read from C cache (2 bytes @ 0x08000712)
T55DC 000:373.937   Data:  80 47
T55DC 000:373.941 - 0.013ms returns 2 (0x2)
T55DC 000:373.952 JLINK_ReadMemEx(0x08000712, 0x2 Bytes, Flags = 0x02000000)
T55DC 000:373.955    -- Read from C cache (2 bytes @ 0x08000712)
T55DC 000:373.960   Data:  80 47
T55DC 000:373.964 - 0.012ms returns 2 (0x2)
T55DC 000:373.968 JLINK_ReadMemEx(0x08000714, 0x3C Bytes, Flags = 0x02000000)
T55DC 000:373.972    -- Read from C cache (60 bytes @ 0x08000714)
T55DC 000:373.977   Data:  06 48 00 47 FE E7 FE E7 FE E7 FE E7 FE E7 FE E7 ...
T55DC 000:373.981 - 0.013ms returns 60 (0x3C)
T55DC 000:373.985 JLINK_ReadMemEx(0x08000714, 0x2 Bytes, Flags = 0x02000000)
T55DC 000:373.988    -- Read from C cache (2 bytes @ 0x08000714)
T55DC 000:373.993   Data:  06 48
T55DC 000:373.997 - 0.012ms returns 2 (0x2)
T55DC 002:134.140 JLINK_ReadMemEx(0x08000714, 0x3C Bytes, Flags = 0x02000000)
T55DC 002:134.163    -- Read from C cache (60 bytes @ 0x08000714)
T55DC 002:134.173   Data:  06 48 00 47 FE E7 FE E7 FE E7 FE E7 FE E7 FE E7 ...
T55DC 002:134.178 - 0.038ms returns 60 (0x3C)
T55DC 002:134.183 JLINK_ReadMemEx(0x08000714, 0x2 Bytes, Flags = 0x02000000)
T55DC 002:134.187    -- Read from C cache (2 bytes @ 0x08000714)
T55DC 002:134.195   Data:  06 48
T55DC 002:134.200 - 0.017ms returns 2 (0x2)
T55DC 002:134.204 JLINK_ReadMemEx(0x08000716, 0x2 Bytes, Flags = 0x02000000)
T55DC 002:134.208    -- Read from C cache (2 bytes @ 0x08000716)
T55DC 002:134.212   Data:  00 47
T55DC 002:134.217 - 0.012ms returns 2 (0x2)
TA454 002:521.642 JLINK_ReadMemEx(0x08000710, 0x2 Bytes, Flags = 0x02000000)
TA454 002:521.668    -- Read from C cache (2 bytes @ 0x08000710)
TA454 002:521.674   Data:  06 48
TA454 002:521.681 - 0.038ms returns 2 (0x2)
TA454 002:521.686 JLINK_HasError()
TA454 002:521.693 JLINK_SetBPEx(Addr = 0x08007C14, Type = 0xFFFFFFF2)
TA454 002:521.699 - 0.006ms returns 0x00000001
TA454 002:521.703 JLINK_HasError()
TA454 002:521.708 JLINK_HasError()
TA454 002:521.716 JLINK_Go()
TA454 002:521.976   CPU_WriteMem(4 bytes @ 0xE0002000)
TA454 002:522.256   CPU_ReadMem(4 bytes @ 0xE0001000)
TA454 002:522.490   CPU_WriteMem(4 bytes @ 0xE0002008)
TA454 002:522.499   CPU_WriteMem(4 bytes @ 0xE000200C)
TA454 002:522.547   CPU_WriteMem(4 bytes @ 0xE0002010)
TA454 002:522.552   CPU_WriteMem(4 bytes @ 0xE0002014)
TA454 002:522.557   CPU_WriteMem(4 bytes @ 0xE0002018)
TA454 002:522.562   CPU_WriteMem(4 bytes @ 0xE000201C)
TA454 002:523.473   CPU_WriteMem(4 bytes @ 0xE0001004)
TA454 002:524.374   Memory map 'after startup completion point' is active
TA454 002:524.387 - 2.670ms 
TA454 002:624.486 JLINK_HasError()
TA454 002:624.511 JLINK_IsHalted()
TA454 002:626.362 - 1.851ms returns TRUE
TA454 002:626.375 JLINK_HasError()
TA454 002:626.380 JLINK_Halt()
TA454 002:626.384 - 0.003ms returns 0x00
TA454 002:626.388 JLINK_IsHalted()
TA454 002:626.391 - 0.003ms returns TRUE
TA454 002:626.395 JLINK_IsHalted()
TA454 002:626.398 - 0.003ms returns TRUE
TA454 002:626.402 JLINK_IsHalted()
TA454 002:626.405 - 0.003ms returns TRUE
TA454 002:626.409 JLINK_HasError()
TA454 002:626.414 JLINK_ReadReg(R15 (PC))
TA454 002:626.419 - 0.005ms returns 0x08007C14
TA454 002:626.423 JLINK_ReadReg(XPSR)
TA454 002:626.426 - 0.003ms returns 0x61000000
TA454 002:626.433 JLINK_HasError()
TA454 002:626.437 JLINK_ClrBPEx(BPHandle = 0x00000001)
TA454 002:626.441 - 0.004ms returns 0x00
TA454 002:626.445 JLINK_HasError()
TA454 002:626.449 JLINK_HasError()
TA454 002:626.453 JLINK_ReadMemU32(0xE000ED30, 0x1 Items)
TA454 002:626.461   CPU_ReadMem(4 bytes @ 0xE000ED30)
TA454 002:626.824   Data:  02 00 00 00
TA454 002:626.837 - 0.384ms returns 1 (0x1)
TA454 002:626.842 JLINK_ReadMemU32(0xE0001028, 0x1 Items)
TA454 002:626.846   CPU_ReadMem(4 bytes @ 0xE0001028)
TA454 002:627.197   Data:  00 00 00 00
TA454 002:627.217   Debug reg: DWT_FUNC[0]
TA454 002:627.222 - 0.380ms returns 1 (0x1)
TA454 002:627.226 JLINK_ReadMemU32(0xE0001038, 0x1 Items)
TA454 002:627.230   CPU_ReadMem(4 bytes @ 0xE0001038)
TA454 002:627.542   Data:  00 02 00 00
TA454 002:627.558   Debug reg: DWT_FUNC[1]
TA454 002:627.563 - 0.336ms returns 1 (0x1)
TA454 002:627.570 JLINK_ReadMemU32(0xE0001048, 0x1 Items)
TA454 002:627.578   CPU_ReadMem(4 bytes @ 0xE0001048)
TA454 002:627.913   Data:  00 00 00 00
TA454 002:627.927   Debug reg: DWT_FUNC[2]
TA454 002:627.933 - 0.362ms returns 1 (0x1)
TA454 002:627.939 JLINK_ReadMemU32(0xE0001058, 0x1 Items)
TA454 002:627.946   CPU_ReadMem(4 bytes @ 0xE0001058)
TA454 002:628.248   Data:  00 00 00 00
TA454 002:628.261   Debug reg: DWT_FUNC[3]
TA454 002:628.266 - 0.327ms returns 1 (0x1)
TA454 002:628.327 JLINK_HasError()
TA454 002:628.332 JLINK_ReadReg(R0)
TA454 002:628.338 - 0.005ms returns 0x08007C15
TA454 002:628.342 JLINK_ReadReg(R1)
TA454 002:628.345 - 0.003ms returns 0x20010D70
TA454 002:628.349 JLINK_ReadReg(R2)
TA454 002:628.352 - 0.003ms returns 0x00000000
TA454 002:628.356 JLINK_ReadReg(R3)
TA454 002:628.360 - 0.003ms returns 0x08004559
TA454 002:628.363 JLINK_ReadReg(R4)
TA454 002:628.367 - 0.003ms returns 0x080281D4
TA454 002:628.370 JLINK_ReadReg(R5)
TA454 002:628.374 - 0.003ms returns 0x080281D4
TA454 002:628.378 JLINK_ReadReg(R6)
TA454 002:628.381 - 0.003ms returns 0x00000000
TA454 002:628.385 JLINK_ReadReg(R7)
TA454 002:628.388 - 0.003ms returns 0x00000000
TA454 002:628.411 JLINK_ReadReg(R8)
TA454 002:628.414 - 0.022ms returns 0x00000000
TA454 002:628.418 JLINK_ReadReg(R9)
TA454 002:628.421 - 0.003ms returns 0x00000000
TA454 002:628.425 JLINK_ReadReg(R10)
TA454 002:628.428 - 0.003ms returns 0x00000000
TA454 002:628.432 JLINK_ReadReg(R11)
TA454 002:628.435 - 0.003ms returns 0x00000000
TA454 002:628.439 JLINK_ReadReg(R12)
TA454 002:628.442 - 0.003ms returns 0x00000000
TA454 002:628.446 JLINK_ReadReg(R13 (SP))
TA454 002:628.449 - 0.003ms returns 0x20010D70
TA454 002:628.453 JLINK_ReadReg(R14)
TA454 002:628.456 - 0.003ms returns 0x08000F6D
TA454 002:628.460 JLINK_ReadReg(R15 (PC))
TA454 002:628.463 - 0.003ms returns 0x08007C14
TA454 002:628.467 JLINK_ReadReg(XPSR)
TA454 002:628.470 - 0.003ms returns 0x61000000
TA454 002:628.474 JLINK_ReadReg(MSP)
TA454 002:628.477 - 0.003ms returns 0x20010D70
TA454 002:628.481 JLINK_ReadReg(PSP)
TA454 002:628.491 - 0.010ms returns 0x00000000
TA454 002:628.497 JLINK_ReadReg(CFBP)
TA454 002:628.500 - 0.003ms returns 0x00000000
TA454 002:628.504 JLINK_ReadReg(FPSCR)
TA454 002:631.415 - 2.910ms returns 0x00000000
TA454 002:631.430 JLINK_ReadReg(FPS0)
TA454 002:631.436 - 0.005ms returns 0x00000000
TA454 002:631.440 JLINK_ReadReg(FPS1)
TA454 002:631.443 - 0.003ms returns 0x00000000
TA454 002:631.447 JLINK_ReadReg(FPS2)
TA454 002:631.451 - 0.003ms returns 0x00000000
TA454 002:631.455 JLINK_ReadReg(FPS3)
TA454 002:631.458 - 0.003ms returns 0x00000000
TA454 002:631.462 JLINK_ReadReg(FPS4)
TA454 002:631.466 - 0.003ms returns 0x00000000
TA454 002:631.470 JLINK_ReadReg(FPS5)
TA454 002:631.475 - 0.005ms returns 0x00000000
TA454 002:631.478 JLINK_ReadReg(FPS6)
TA454 002:631.482 - 0.003ms returns 0x00000000
TA454 002:631.486 JLINK_ReadReg(FPS7)
TA454 002:631.489 - 0.003ms returns 0x00000000
TA454 002:631.492 JLINK_ReadReg(FPS8)
TA454 002:631.504 - 0.011ms returns 0x00000000
TA454 002:631.508 JLINK_ReadReg(FPS9)
TA454 002:631.511 - 0.003ms returns 0x00000000
TA454 002:631.515 JLINK_ReadReg(FPS10)
TA454 002:631.518 - 0.003ms returns 0x00000000
TA454 002:631.522 JLINK_ReadReg(FPS11)
TA454 002:631.525 - 0.003ms returns 0x00000000
TA454 002:631.529 JLINK_ReadReg(FPS12)
TA454 002:631.532 - 0.003ms returns 0x00000000
TA454 002:631.536 JLINK_ReadReg(FPS13)
TA454 002:631.539 - 0.003ms returns 0x00000000
TA454 002:631.543 JLINK_ReadReg(FPS14)
TA454 002:631.546 - 0.003ms returns 0x00000000
TA454 002:631.550 JLINK_ReadReg(FPS15)
TA454 002:631.553 - 0.003ms returns 0x00000000
TA454 002:631.557 JLINK_ReadReg(FPS16)
TA454 002:631.560 - 0.003ms returns 0x00000000
TA454 002:631.564 JLINK_ReadReg(FPS17)
TA454 002:631.568 - 0.003ms returns 0x00000000
TA454 002:631.571 JLINK_ReadReg(FPS18)
TA454 002:631.575 - 0.003ms returns 0x00000000
TA454 002:631.578 JLINK_ReadReg(FPS19)
TA454 002:631.582 - 0.003ms returns 0x00000000
TA454 002:631.585 JLINK_ReadReg(FPS20)
TA454 002:631.589 - 0.003ms returns 0x00000000
TA454 002:631.592 JLINK_ReadReg(FPS21)
TA454 002:631.596 - 0.003ms returns 0x00000000
TA454 002:631.599 JLINK_ReadReg(FPS22)
TA454 002:631.604 - 0.004ms returns 0x00000000
TA454 002:631.608 JLINK_ReadReg(FPS23)
TA454 002:631.611 - 0.003ms returns 0x00000000
TA454 002:631.615 JLINK_ReadReg(FPS24)
TA454 002:631.618 - 0.003ms returns 0x00000000
TA454 002:631.622 JLINK_ReadReg(FPS25)
TA454 002:631.626 - 0.003ms returns 0x00000000
TA454 002:631.630 JLINK_ReadReg(FPS26)
TA454 002:631.633 - 0.003ms returns 0x00000000
TA454 002:631.637 JLINK_ReadReg(FPS27)
TA454 002:631.640 - 0.003ms returns 0x00000000
TA454 002:631.644 JLINK_ReadReg(FPS28)
TA454 002:631.648 - 0.003ms returns 0x00000000
TA454 002:631.652 JLINK_ReadReg(FPS29)
TA454 002:631.655 - 0.003ms returns 0x00000000
TA454 002:631.659 JLINK_ReadReg(FPS30)
TA454 002:631.662 - 0.003ms returns 0x00000000
TA454 002:631.666 JLINK_ReadReg(FPS31)
TA454 002:631.670 - 0.003ms returns 0x00000000
TA454 002:631.677 JLINK_ReadMemEx(0x20000030, 0x4 Bytes, Flags = 0x02000000)
TA454 002:631.686   CPU_ReadMem(64 bytes @ 0x20000000)
TA454 002:632.235    -- Updating C cache (64 bytes @ 0x20000000)
TA454 002:632.242    -- Read from C cache (4 bytes @ 0x20000030)
TA454 002:632.248   Data:  00 00 00 00
TA454 002:632.253 - 0.575ms returns 4 (0x4)
T55DC 002:632.730 JLINK_ReadMemEx(0xE000ED28, 0x4 Bytes, Flags = 0x02000000)
T55DC 002:632.742   CPU_ReadMem(4 bytes @ 0xE000ED28)
T55DC 002:632.957   Data:  00 00 00 00
T55DC 002:632.967 - 0.236ms returns 4 (0x4)
TA454 003:118.527 JLINK_ReadMemEx(0x08007C14, 0x2 Bytes, Flags = 0x02000000)
TA454 003:118.588   CPU_ReadMem(64 bytes @ 0x08007C00)
TA454 003:119.161    -- Updating C cache (64 bytes @ 0x08007C00)
TA454 003:119.185    -- Read from C cache (2 bytes @ 0x08007C14)
TA454 003:119.191   Data:  FA F7
TA454 003:119.197 - 0.674ms returns 2 (0x2)
TA454 003:119.205 JLINK_HasError()
TA454 003:119.210 JLINK_HasError()
TA454 003:119.215 JLINK_Go()
TA454 003:119.226   CPU_ReadMem(4 bytes @ 0xE0001000)
TA454 003:119.501   CPU_WriteMem(4 bytes @ 0xE0002008)
TA454 003:120.017 - 0.801ms 
TA454 003:220.720 JLINK_HasError()
TA454 003:220.742 JLINK_IsHalted()
TA454 003:221.101 - 0.358ms returns FALSE
TA454 003:321.595 JLINK_HasError()
TA454 003:321.627 JLINK_IsHalted()
TA454 003:321.886 - 0.258ms returns FALSE
TA454 003:422.948 JLINK_HasError()
TA454 003:423.023 JLINK_IsHalted()
TA454 003:424.921 - 1.897ms returns TRUE
TA454 003:424.936 JLINK_HasError()
TA454 003:424.940 JLINK_Halt()
TA454 003:424.944 - 0.003ms returns 0x00
TA454 003:424.948 JLINK_IsHalted()
TA454 003:424.951 - 0.003ms returns TRUE
TA454 003:424.956 JLINK_IsHalted()
TA454 003:424.959 - 0.003ms returns TRUE
TA454 003:424.962 JLINK_IsHalted()
TA454 003:424.965 - 0.003ms returns TRUE
TA454 003:424.970 JLINK_HasError()
TA454 003:424.974 JLINK_ReadReg(R15 (PC))
TA454 003:424.979 - 0.005ms returns 0x080063B6
TA454 003:424.983 JLINK_ReadReg(XPSR)
TA454 003:424.987 - 0.003ms returns 0x21000000
TA454 003:424.994 JLINK_HasError()
TA454 003:424.998 JLINK_HasError()
TA454 003:425.002 JLINK_ReadMemU32(0xE000ED30, 0x1 Items)
TA454 003:425.010   CPU_ReadMem(4 bytes @ 0xE000ED30)
TA454 003:425.250   Data:  02 00 00 00
TA454 003:425.255 - 0.253ms returns 1 (0x1)
TA454 003:425.260 JLINK_ReadMemU32(0xE0001028, 0x1 Items)
TA454 003:425.265   CPU_ReadMem(4 bytes @ 0xE0001028)
TA454 003:425.462   Data:  00 00 00 00
TA454 003:425.468   Debug reg: DWT_FUNC[0]
TA454 003:425.473 - 0.212ms returns 1 (0x1)
TA454 003:425.478 JLINK_ReadMemU32(0xE0001038, 0x1 Items)
TA454 003:425.482   CPU_ReadMem(4 bytes @ 0xE0001038)
TA454 003:425.690   Data:  00 02 00 00
TA454 003:425.697   Debug reg: DWT_FUNC[1]
TA454 003:425.703 - 0.224ms returns 1 (0x1)
TA454 003:425.708 JLINK_ReadMemU32(0xE0001048, 0x1 Items)
TA454 003:425.712   CPU_ReadMem(4 bytes @ 0xE0001048)
TA454 003:425.915   Data:  00 00 00 00
TA454 003:425.920   Debug reg: DWT_FUNC[2]
TA454 003:425.925 - 0.217ms returns 1 (0x1)
TA454 003:425.930 JLINK_ReadMemU32(0xE0001058, 0x1 Items)
TA454 003:425.934   CPU_ReadMem(4 bytes @ 0xE0001058)
TA454 003:426.184   Data:  00 00 00 00
TA454 003:426.190   Debug reg: DWT_FUNC[3]
TA454 003:426.196 - 0.265ms returns 1 (0x1)
TA454 003:426.243 JLINK_HasError()
TA454 003:426.248 JLINK_ReadReg(R0)
TA454 003:426.252 - 0.004ms returns 0x00000003
TA454 003:426.256 JLINK_ReadReg(R1)
TA454 003:426.259 - 0.003ms returns 0x200040C8
TA454 003:426.263 JLINK_ReadReg(R2)
TA454 003:426.266 - 0.003ms returns 0x080063AB
TA454 003:426.270 JLINK_ReadReg(R3)
TA454 003:426.273 - 0.003ms returns 0x080063AB
TA454 003:426.277 JLINK_ReadReg(R4)
TA454 003:426.280 - 0.003ms returns 0x00000076
TA454 003:426.284 JLINK_ReadReg(R5)
TA454 003:426.288 - 0.003ms returns 0x080194E4
TA454 003:426.292 JLINK_ReadReg(R6)
TA454 003:426.295 - 0.003ms returns 0x00000000
TA454 003:426.298 JLINK_ReadReg(R7)
TA454 003:426.302 - 0.003ms returns 0x20004144
TA454 003:426.305 JLINK_ReadReg(R8)
TA454 003:426.308 - 0.003ms returns 0xA5A5A5A5
TA454 003:426.312 JLINK_ReadReg(R9)
TA454 003:426.316 - 0.003ms returns 0xA5A5A5A5
TA454 003:426.319 JLINK_ReadReg(R10)
TA454 003:426.322 - 0.003ms returns 0x080063AB
TA454 003:426.326 JLINK_ReadReg(R11)
TA454 003:426.329 - 0.003ms returns 0xA5A5A5A5
TA454 003:426.333 JLINK_ReadReg(R12)
TA454 003:426.336 - 0.003ms returns 0xA5A5A5A5
TA454 003:426.340 JLINK_ReadReg(R13 (SP))
TA454 003:426.344 - 0.003ms returns 0x200040C8
TA454 003:426.348 JLINK_ReadReg(R14)
TA454 003:426.351 - 0.003ms returns 0x08004583
TA454 003:426.355 JLINK_ReadReg(R15 (PC))
TA454 003:426.358 - 0.003ms returns 0x080063B6
TA454 003:426.362 JLINK_ReadReg(XPSR)
TA454 003:426.365 - 0.003ms returns 0x21000000
TA454 003:426.369 JLINK_ReadReg(MSP)
TA454 003:426.372 - 0.003ms returns 0x20010D50
TA454 003:426.376 JLINK_ReadReg(PSP)
TA454 003:426.380 - 0.003ms returns 0x200040C8
TA454 003:426.383 JLINK_ReadReg(CFBP)
TA454 003:426.386 - 0.003ms returns 0x02000000
TA454 003:426.390 JLINK_ReadReg(FPSCR)
TA454 003:429.232 - 2.841ms returns 0x00000000
TA454 003:429.248 JLINK_ReadReg(FPS0)
TA454 003:429.261 - 0.012ms returns 0x00000000
TA454 003:429.265 JLINK_ReadReg(FPS1)
TA454 003:429.268 - 0.003ms returns 0x00000000
TA454 003:429.272 JLINK_ReadReg(FPS2)
TA454 003:429.276 - 0.003ms returns 0x00000000
TA454 003:429.280 JLINK_ReadReg(FPS3)
TA454 003:429.283 - 0.003ms returns 0x00000000
TA454 003:429.287 JLINK_ReadReg(FPS4)
TA454 003:429.290 - 0.003ms returns 0x00000000
TA454 003:429.294 JLINK_ReadReg(FPS5)
TA454 003:429.298 - 0.003ms returns 0x00000000
TA454 003:429.302 JLINK_ReadReg(FPS6)
TA454 003:429.305 - 0.003ms returns 0x00000000
TA454 003:429.309 JLINK_ReadReg(FPS7)
TA454 003:429.312 - 0.003ms returns 0x00000000
TA454 003:429.316 JLINK_ReadReg(FPS8)
TA454 003:429.320 - 0.003ms returns 0x00000000
TA454 003:429.324 JLINK_ReadReg(FPS9)
TA454 003:429.327 - 0.003ms returns 0x00000000
TA454 003:429.331 JLINK_ReadReg(FPS10)
TA454 003:429.334 - 0.003ms returns 0x00000000
TA454 003:429.338 JLINK_ReadReg(FPS11)
TA454 003:429.342 - 0.003ms returns 0x00000000
TA454 003:429.346 JLINK_ReadReg(FPS12)
TA454 003:429.349 - 0.003ms returns 0x00000000
TA454 003:429.353 JLINK_ReadReg(FPS13)
TA454 003:429.356 - 0.003ms returns 0x00000000
TA454 003:429.360 JLINK_ReadReg(FPS14)
TA454 003:429.363 - 0.003ms returns 0x00000000
TA454 003:429.367 JLINK_ReadReg(FPS15)
TA454 003:429.370 - 0.003ms returns 0x00000000
TA454 003:429.374 JLINK_ReadReg(FPS16)
TA454 003:429.378 - 0.003ms returns 0x00000000
TA454 003:429.382 JLINK_ReadReg(FPS17)
TA454 003:429.385 - 0.003ms returns 0x00000000
TA454 003:429.389 JLINK_ReadReg(FPS18)
TA454 003:429.392 - 0.003ms returns 0x00000000
TA454 003:429.396 JLINK_ReadReg(FPS19)
TA454 003:429.400 - 0.003ms returns 0x00000000
TA454 003:429.404 JLINK_ReadReg(FPS20)
TA454 003:429.407 - 0.003ms returns 0x00000000
TA454 003:429.411 JLINK_ReadReg(FPS21)
TA454 003:429.414 - 0.003ms returns 0x00000000
TA454 003:429.418 JLINK_ReadReg(FPS22)
TA454 003:429.422 - 0.003ms returns 0x00000000
TA454 003:429.425 JLINK_ReadReg(FPS23)
TA454 003:429.429 - 0.003ms returns 0x00000000
TA454 003:429.432 JLINK_ReadReg(FPS24)
TA454 003:429.436 - 0.003ms returns 0x00000000
TA454 003:429.440 JLINK_ReadReg(FPS25)
TA454 003:429.443 - 0.003ms returns 0x00000000
TA454 003:429.447 JLINK_ReadReg(FPS26)
TA454 003:429.450 - 0.003ms returns 0x00000000
TA454 003:429.454 JLINK_ReadReg(FPS27)
TA454 003:429.457 - 0.003ms returns 0x00000000
TA454 003:429.461 JLINK_ReadReg(FPS28)
TA454 003:429.464 - 0.003ms returns 0x00000000
TA454 003:429.468 JLINK_ReadReg(FPS29)
TA454 003:429.472 - 0.003ms returns 0x00000000
TA454 003:429.476 JLINK_ReadReg(FPS30)
TA454 003:429.479 - 0.003ms returns 0x00000000
TA454 003:429.483 JLINK_ReadReg(FPS31)
TA454 003:429.486 - 0.003ms returns 0x00000000
TA454 003:429.494 JLINK_ReadMemEx(0x20000030, 0x4 Bytes, Flags = 0x02000000)
TA454 003:429.504   CPU_ReadMem(64 bytes @ 0x20000000)
TA454 003:429.966    -- Updating C cache (64 bytes @ 0x20000000)
TA454 003:429.980    -- Read from C cache (4 bytes @ 0x20000030)
TA454 003:429.985   Data:  05 00 00 00
TA454 003:429.990 - 0.496ms returns 4 (0x4)
TA454 003:429.998 JLINK_ReadMemEx(0x20000020, 0x4 Bytes, Flags = 0x02000000)
TA454 003:430.004    -- Read from C cache (4 bytes @ 0x20000020)
TA454 003:430.009   Data:  60 41 00 20
TA454 003:430.014 - 0.015ms returns 4 (0x4)
T55DC 003:430.248 JLINK_ReadMemEx(0x200040D4, 0x4 Bytes, Flags = 0x02000000)
T55DC 003:430.266   CPU_ReadMem(64 bytes @ 0x200040C0)
T55DC 003:430.740    -- Updating C cache (64 bytes @ 0x200040C0)
T55DC 003:430.748    -- Read from C cache (4 bytes @ 0x200040D4)
T55DC 003:430.754   Data:  83 45 00 08
T55DC 003:430.760 - 0.511ms returns 4 (0x4)
T55DC 003:430.770 JLINK_ReadMemEx(0x200040CC, 0x4 Bytes, Flags = 0x02000000)
T55DC 003:430.775    -- Read from C cache (4 bytes @ 0x200040CC)
T55DC 003:430.780   Data:  D7 03 00 00
T55DC 003:430.784 - 0.014ms returns 4 (0x4)
T55DC 003:430.788 JLINK_ReadMemEx(0x200040D0, 0x4 Bytes, Flags = 0x02000000)
T55DC 003:430.792    -- Read from C cache (4 bytes @ 0x200040D0)
T55DC 003:430.843   Data:  E4 94 01 08
T55DC 003:430.850 - 0.061ms returns 4 (0x4)
T55DC 003:430.854 JLINK_ReadMemEx(0x200040D4, 0x4 Bytes, Flags = 0x02000000)
T55DC 003:430.858    -- Read from C cache (4 bytes @ 0x200040D4)
T55DC 003:430.863   Data:  83 45 00 08
T55DC 003:430.868 - 0.013ms returns 4 (0x4)
T55DC 003:430.873 JLINK_ReadMemEx(0x20004134, 0x4 Bytes, Flags = 0x02000000)
T55DC 003:430.878   CPU_ReadMem(64 bytes @ 0x20004100)
T55DC 003:431.384    -- Updating C cache (64 bytes @ 0x20004100)
T55DC 003:431.395    -- Read from C cache (4 bytes @ 0x20004134)
T55DC 003:431.400   Data:  F9 44 00 08
T55DC 003:431.406 - 0.532ms returns 4 (0x4)
T55DC 003:431.417 JLINK_ReadMemEx(0x20004114, 0x4 Bytes, Flags = 0x02000000)
T55DC 003:431.422    -- Read from C cache (4 bytes @ 0x20004114)
T55DC 003:431.427   Data:  D7 03 00 00
T55DC 003:431.432 - 0.014ms returns 4 (0x4)
T55DC 003:431.436 JLINK_ReadMemEx(0x20004118, 0x4 Bytes, Flags = 0x02000000)
T55DC 003:431.440    -- Read from C cache (4 bytes @ 0x20004118)
T55DC 003:431.444   Data:  A5 A5 A5 A5
T55DC 003:431.449 - 0.013ms returns 4 (0x4)
T55DC 003:431.453 JLINK_ReadMemEx(0x2000411C, 0x4 Bytes, Flags = 0x02000000)
T55DC 003:431.456    -- Read from C cache (4 bytes @ 0x2000411C)
T55DC 003:431.461   Data:  A5 A5 A5 A5
T55DC 003:431.466 - 0.012ms returns 4 (0x4)
T55DC 003:431.470 JLINK_ReadMemEx(0x20004120, 0x4 Bytes, Flags = 0x02000000)
T55DC 003:431.473    -- Read from C cache (4 bytes @ 0x20004120)
T55DC 003:431.477   Data:  A5 A5 A5 A5
T55DC 003:431.482 - 0.012ms returns 4 (0x4)
T55DC 003:431.486 JLINK_ReadMemEx(0x20004124, 0x4 Bytes, Flags = 0x02000000)
T55DC 003:431.489    -- Read from C cache (4 bytes @ 0x20004124)
T55DC 003:431.494   Data:  A5 A5 A5 A5
T55DC 003:431.498 - 0.012ms returns 4 (0x4)
T55DC 003:431.502 JLINK_ReadMemEx(0x20004128, 0x4 Bytes, Flags = 0x02000000)
T55DC 003:431.506    -- Read from C cache (4 bytes @ 0x20004128)
T55DC 003:431.510   Data:  A5 A5 A5 A5
T55DC 003:431.514 - 0.012ms returns 4 (0x4)
T55DC 003:431.518 JLINK_ReadMemEx(0x2000412C, 0x4 Bytes, Flags = 0x02000000)
T55DC 003:431.522    -- Read from C cache (4 bytes @ 0x2000412C)
T55DC 003:431.526   Data:  A5 A5 A5 A5
T55DC 003:431.531 - 0.012ms returns 4 (0x4)
T55DC 003:431.535 JLINK_ReadMemEx(0x20004130, 0x4 Bytes, Flags = 0x02000000)
T55DC 003:431.538    -- Read from C cache (4 bytes @ 0x20004130)
T55DC 003:431.543   Data:  A5 A5 A5 A5
T55DC 003:431.547 - 0.012ms returns 4 (0x4)
T55DC 003:431.551 JLINK_ReadMemEx(0x20004134, 0x4 Bytes, Flags = 0x02000000)
T55DC 003:431.554    -- Read from C cache (4 bytes @ 0x20004134)
T55DC 003:431.559   Data:  F9 44 00 08
T55DC 003:431.563 - 0.012ms returns 4 (0x4)
T55DC 003:431.569 JLINK_ReadMemEx(0x2000413C, 0x4 Bytes, Flags = 0x02000000)
T55DC 003:431.573    -- Read from C cache (4 bytes @ 0x2000413C)
T55DC 003:431.577   Data:  C5 94 01 08
T55DC 003:431.582 - 0.012ms returns 4 (0x4)
T55DC 003:431.587 JLINK_ReadMemEx(0x20004138, 0x4 Bytes, Flags = 0x02000000)
T55DC 003:431.591    -- Read from C cache (4 bytes @ 0x20004138)
T55DC 003:431.595   Data:  D7 03 00 00
T55DC 003:431.600 - 0.012ms returns 4 (0x4)
T55DC 003:431.604 JLINK_ReadMemEx(0x2000413C, 0x4 Bytes, Flags = 0x02000000)
T55DC 003:431.607    -- Read from C cache (4 bytes @ 0x2000413C)
T55DC 003:431.611   Data:  C5 94 01 08
T55DC 003:431.616 - 0.012ms returns 4 (0x4)
T55DC 003:436.552 JLINK_ReadMemEx(0x080063B6, 0x2 Bytes, Flags = 0x02000000)
T55DC 003:436.580   CPU_ReadMem(64 bytes @ 0x08006380)
T55DC 003:437.140    -- Updating C cache (64 bytes @ 0x08006380)
T55DC 003:437.155    -- Read from C cache (2 bytes @ 0x080063B6)
T55DC 003:437.160   Data:  AB BE
T55DC 003:437.166 - 0.614ms returns 2 (0x2)
T55DC 003:437.174 JLINK_ReadMemEx(0x080063B8, 0x3C Bytes, Flags = 0x02000000)
T55DC 003:437.180   CPU_ReadMem(64 bytes @ 0x080063C0)
T55DC 003:437.648    -- Updating C cache (64 bytes @ 0x080063C0)
T55DC 003:437.656    -- Read from C cache (60 bytes @ 0x080063B8)
T55DC 003:437.662   Data:  20 46 38 BD 10 B5 00 28 21 D0 11 4B 00 22 00 1F ...
T55DC 003:437.674 - 0.500ms returns 60 (0x3C)
T55DC 003:437.680 JLINK_ReadMemEx(0x080063B8, 0x2 Bytes, Flags = 0x02000000)
T55DC 003:437.684    -- Read from C cache (2 bytes @ 0x080063B8)
T55DC 003:437.689   Data:  20 46
T55DC 003:437.694 - 0.014ms returns 2 (0x2)
T55DC 003:437.706 JLINK_ReadMemEx(0x080063B8, 0x3C Bytes, Flags = 0x02000000)
T55DC 003:437.710    -- Read from C cache (60 bytes @ 0x080063B8)
T55DC 003:437.715   Data:  20 46 38 BD 10 B5 00 28 21 D0 11 4B 00 22 00 1F ...
T55DC 003:437.720 - 0.013ms returns 60 (0x3C)
T55DC 003:437.724 JLINK_ReadMemEx(0x080063B8, 0x2 Bytes, Flags = 0x02000000)
T55DC 003:437.727    -- Read from C cache (2 bytes @ 0x080063B8)
T55DC 003:437.732   Data:  20 46
T55DC 003:437.736 - 0.012ms returns 2 (0x2)
T55DC 003:437.740 JLINK_ReadMemEx(0x080063BA, 0x2 Bytes, Flags = 0x02000000)
T55DC 003:437.744    -- Read from C cache (2 bytes @ 0x080063BA)
T55DC 003:437.748   Data:  38 BD
T55DC 003:437.753 - 0.012ms returns 2 (0x2)
T55DC 003:437.759 JLINK_ReadMemEx(0x080063BA, 0x2 Bytes, Flags = 0x02000000)
T55DC 003:437.762    -- Read from C cache (2 bytes @ 0x080063BA)
T55DC 003:437.767   Data:  38 BD
T55DC 003:437.772 - 0.013ms returns 2 (0x2)
T55DC 003:437.776 JLINK_ReadMemEx(0x080063BC, 0x3C Bytes, Flags = 0x02000000)
T55DC 003:437.779    -- Read from C cache (60 bytes @ 0x080063BC)
T55DC 003:437.784   Data:  10 B5 00 28 21 D0 11 4B 00 22 00 1F 19 68 03 E0 ...
T55DC 003:437.792 - 0.015ms returns 60 (0x3C)
T55DC 003:437.796 JLINK_ReadMemEx(0x080063BC, 0x2 Bytes, Flags = 0x02000000)
T55DC 003:437.799    -- Read from C cache (2 bytes @ 0x080063BC)
T55DC 003:437.804   Data:  10 B5
T55DC 003:437.809 - 0.013ms returns 2 (0x2)
T55DC 003:437.815 JLINK_ReadMemEx(0x080063BC, 0x3C Bytes, Flags = 0x02000000)
T55DC 003:437.818    -- Read from C cache (60 bytes @ 0x080063BC)
T55DC 003:437.824   Data:  10 B5 00 28 21 D0 11 4B 00 22 00 1F 19 68 03 E0 ...
T55DC 003:437.828 - 0.013ms returns 60 (0x3C)
T55DC 003:437.832 JLINK_ReadMemEx(0x080063BC, 0x2 Bytes, Flags = 0x02000000)
T55DC 003:437.836    -- Read from C cache (2 bytes @ 0x080063BC)
T55DC 003:437.841   Data:  10 B5
T55DC 003:437.846 - 0.013ms returns 2 (0x2)
T55DC 003:437.850 JLINK_ReadMemEx(0x080063BE, 0x2 Bytes, Flags = 0x02000000)
T55DC 003:437.853    -- Read from C cache (2 bytes @ 0x080063BE)
T55DC 003:437.858   Data:  00 28
T55DC 003:437.863 - 0.013ms returns 2 (0x2)
TA454 004:150.340 JLINK_ReadMemEx(0x080063B6, 0x2 Bytes, Flags = 0x02000000)
TA454 004:150.366    -- Read from C cache (2 bytes @ 0x080063B6)
TA454 004:150.372   Data:  AB BE
TA454 004:150.378 - 0.038ms returns 2 (0x2)
TA454 004:150.383 JLINK_HasError()
TA454 004:150.390 JLINK_WriteReg(R15 (PC), 0x080063B8)
TA454 004:150.396 - 0.006ms returns 0
TA454 004:150.401 JLINK_HasError()
TA454 004:150.404 JLINK_HasError()
TA454 004:150.409 JLINK_Go()
TA454 004:150.689   CPU_ReadMem(4 bytes @ 0xE0001000)
TA454 004:151.449 - 1.039ms 
TA454 004:251.542 JLINK_HasError()
TA454 004:251.568 JLINK_IsHalted()
TA454 004:253.603 - 2.034ms returns TRUE
TA454 004:253.616 JLINK_HasError()
TA454 004:253.621 JLINK_Halt()
TA454 004:253.625 - 0.003ms returns 0x00
TA454 004:253.629 JLINK_IsHalted()
TA454 004:253.632 - 0.003ms returns TRUE
TA454 004:253.635 JLINK_IsHalted()
TA454 004:253.639 - 0.003ms returns TRUE
TA454 004:253.643 JLINK_IsHalted()
TA454 004:253.646 - 0.003ms returns TRUE
TA454 004:253.650 JLINK_HasError()
TA454 004:253.654 JLINK_ReadReg(R15 (PC))
TA454 004:253.660 - 0.005ms returns 0x080063B6
TA454 004:253.664 JLINK_ReadReg(XPSR)
TA454 004:253.667 - 0.003ms returns 0x21000000
TA454 004:253.673 JLINK_HasError()
TA454 004:253.677 JLINK_HasError()
TA454 004:253.681 JLINK_ReadMemU32(0xE000ED30, 0x1 Items)
TA454 004:253.690   CPU_ReadMem(4 bytes @ 0xE000ED30)
TA454 004:253.909   Data:  02 00 00 00
TA454 004:253.917 - 0.235ms returns 1 (0x1)
TA454 004:253.922 JLINK_ReadMemU32(0xE0001028, 0x1 Items)
TA454 004:253.929   CPU_ReadMem(4 bytes @ 0xE0001028)
TA454 004:254.172   Data:  00 00 00 00
TA454 004:254.177   Debug reg: DWT_FUNC[0]
TA454 004:254.189 - 0.266ms returns 1 (0x1)
TA454 004:254.193 JLINK_ReadMemU32(0xE0001038, 0x1 Items)
TA454 004:254.198   CPU_ReadMem(4 bytes @ 0xE0001038)
TA454 004:254.395   Data:  00 02 00 00
TA454 004:254.401   Debug reg: DWT_FUNC[1]
TA454 004:254.405 - 0.211ms returns 1 (0x1)
TA454 004:254.409 JLINK_ReadMemU32(0xE0001048, 0x1 Items)
TA454 004:254.413   CPU_ReadMem(4 bytes @ 0xE0001048)
TA454 004:254.615   Data:  00 00 00 00
TA454 004:254.620   Debug reg: DWT_FUNC[2]
TA454 004:254.624 - 0.215ms returns 1 (0x1)
TA454 004:254.629 JLINK_ReadMemU32(0xE0001058, 0x1 Items)
TA454 004:254.633   CPU_ReadMem(4 bytes @ 0xE0001058)
TA454 004:254.831   Data:  00 00 00 00
TA454 004:254.835   Debug reg: DWT_FUNC[3]
TA454 004:254.840 - 0.211ms returns 1 (0x1)
TA454 004:254.894 JLINK_HasError()
TA454 004:254.899 JLINK_ReadReg(R0)
TA454 004:254.903 - 0.004ms returns 0x00000003
TA454 004:254.907 JLINK_ReadReg(R1)
TA454 004:254.910 - 0.003ms returns 0x200040C8
TA454 004:254.914 JLINK_ReadReg(R2)
TA454 004:254.917 - 0.003ms returns 0x080063AB
TA454 004:254.921 JLINK_ReadReg(R3)
TA454 004:254.924 - 0.003ms returns 0x08006376
TA454 004:254.928 JLINK_ReadReg(R4)
TA454 004:254.931 - 0.003ms returns 0x00000054
TA454 004:254.935 JLINK_ReadReg(R5)
TA454 004:254.938 - 0.003ms returns 0x080194E5
TA454 004:254.942 JLINK_ReadReg(R6)
TA454 004:254.945 - 0.003ms returns 0x00000001
TA454 004:254.949 JLINK_ReadReg(R7)
TA454 004:254.952 - 0.003ms returns 0x20004144
TA454 004:254.956 JLINK_ReadReg(R8)
TA454 004:254.959 - 0.003ms returns 0xA5A5A5A5
TA454 004:254.963 JLINK_ReadReg(R9)
TA454 004:254.966 - 0.003ms returns 0xA5A5A5A5
TA454 004:254.969 JLINK_ReadReg(R10)
TA454 004:254.973 - 0.003ms returns 0x080063AB
TA454 004:254.976 JLINK_ReadReg(R11)
TA454 004:254.981 - 0.004ms returns 0xA5A5A5A5
TA454 004:254.985 JLINK_ReadReg(R12)
TA454 004:254.989 - 0.003ms returns 0xA5A5A5A5
TA454 004:254.992 JLINK_ReadReg(R13 (SP))
TA454 004:254.996 - 0.003ms returns 0x200040C8
TA454 004:254.999 JLINK_ReadReg(R14)
TA454 004:255.002 - 0.003ms returns 0x08004583
TA454 004:255.006 JLINK_ReadReg(R15 (PC))
TA454 004:255.009 - 0.003ms returns 0x080063B6
TA454 004:255.013 JLINK_ReadReg(XPSR)
TA454 004:255.017 - 0.003ms returns 0x21000000
TA454 004:255.020 JLINK_ReadReg(MSP)
TA454 004:255.023 - 0.003ms returns 0x20010D50
TA454 004:255.027 JLINK_ReadReg(PSP)
TA454 004:255.030 - 0.003ms returns 0x200040C8
TA454 004:255.033 JLINK_ReadReg(CFBP)
TA454 004:255.037 - 0.003ms returns 0x02000000
TA454 004:255.040 JLINK_ReadReg(FPSCR)
TA454 004:257.865 - 2.824ms returns 0x00000000
TA454 004:257.879 JLINK_ReadReg(FPS0)
TA454 004:257.884 - 0.005ms returns 0x00000000
TA454 004:257.888 JLINK_ReadReg(FPS1)
TA454 004:257.892 - 0.003ms returns 0x00000000
TA454 004:257.896 JLINK_ReadReg(FPS2)
TA454 004:257.900 - 0.003ms returns 0x00000000
TA454 004:257.904 JLINK_ReadReg(FPS3)
TA454 004:257.908 - 0.003ms returns 0x00000000
TA454 004:257.912 JLINK_ReadReg(FPS4)
TA454 004:257.915 - 0.003ms returns 0x00000000
TA454 004:257.920 JLINK_ReadReg(FPS5)
TA454 004:257.923 - 0.003ms returns 0x00000000
TA454 004:257.927 JLINK_ReadReg(FPS6)
TA454 004:257.931 - 0.003ms returns 0x00000000
TA454 004:257.935 JLINK_ReadReg(FPS7)
TA454 004:257.939 - 0.003ms returns 0x00000000
TA454 004:257.943 JLINK_ReadReg(FPS8)
TA454 004:257.947 - 0.003ms returns 0x00000000
TA454 004:257.951 JLINK_ReadReg(FPS9)
TA454 004:257.954 - 0.003ms returns 0x00000000
TA454 004:257.958 JLINK_ReadReg(FPS10)
TA454 004:257.962 - 0.003ms returns 0x00000000
TA454 004:257.966 JLINK_ReadReg(FPS11)
TA454 004:257.970 - 0.003ms returns 0x00000000
TA454 004:257.974 JLINK_ReadReg(FPS12)
TA454 004:257.977 - 0.003ms returns 0x00000000
TA454 004:257.982 JLINK_ReadReg(FPS13)
TA454 004:257.985 - 0.003ms returns 0x00000000
TA454 004:257.989 JLINK_ReadReg(FPS14)
TA454 004:257.993 - 0.003ms returns 0x00000000
TA454 004:257.997 JLINK_ReadReg(FPS15)
TA454 004:258.001 - 0.003ms returns 0x00000000
TA454 004:258.005 JLINK_ReadReg(FPS16)
TA454 004:258.009 - 0.003ms returns 0x00000000
TA454 004:258.017 JLINK_ReadReg(FPS17)
TA454 004:258.021 - 0.003ms returns 0x00000000
TA454 004:258.025 JLINK_ReadReg(FPS18)
TA454 004:258.029 - 0.003ms returns 0x00000000
TA454 004:258.033 JLINK_ReadReg(FPS19)
TA454 004:258.036 - 0.003ms returns 0x00000000
TA454 004:258.041 JLINK_ReadReg(FPS20)
TA454 004:258.044 - 0.003ms returns 0x00000000
TA454 004:258.048 JLINK_ReadReg(FPS21)
TA454 004:258.052 - 0.003ms returns 0x00000000
TA454 004:258.056 JLINK_ReadReg(FPS22)
TA454 004:258.060 - 0.003ms returns 0x00000000
TA454 004:258.064 JLINK_ReadReg(FPS23)
TA454 004:258.067 - 0.003ms returns 0x00000000
TA454 004:258.071 JLINK_ReadReg(FPS24)
TA454 004:258.075 - 0.003ms returns 0x00000000
TA454 004:258.079 JLINK_ReadReg(FPS25)
TA454 004:258.083 - 0.003ms returns 0x00000000
TA454 004:258.087 JLINK_ReadReg(FPS26)
TA454 004:258.091 - 0.003ms returns 0x00000000
TA454 004:258.095 JLINK_ReadReg(FPS27)
TA454 004:258.098 - 0.003ms returns 0x00000000
TA454 004:258.102 JLINK_ReadReg(FPS28)
TA454 004:258.106 - 0.003ms returns 0x00000000
TA454 004:258.110 JLINK_ReadReg(FPS29)
TA454 004:258.113 - 0.003ms returns 0x00000000
TA454 004:258.117 JLINK_ReadReg(FPS30)
TA454 004:258.121 - 0.003ms returns 0x00000000
TA454 004:258.125 JLINK_ReadReg(FPS31)
TA454 004:258.129 - 0.003ms returns 0x00000000
TA454 004:258.137 JLINK_ReadMemEx(0x20000030, 0x4 Bytes, Flags = 0x02000000)
TA454 004:258.145   CPU_ReadMem(64 bytes @ 0x20000000)
TA454 004:258.602    -- Updating C cache (64 bytes @ 0x20000000)
TA454 004:258.615    -- Read from C cache (4 bytes @ 0x20000030)
TA454 004:258.621   Data:  05 00 00 00
TA454 004:258.626 - 0.489ms returns 4 (0x4)
TA454 004:258.635 JLINK_ReadMemEx(0x20000020, 0x4 Bytes, Flags = 0x02000000)
TA454 004:258.641    -- Read from C cache (4 bytes @ 0x20000020)
TA454 004:258.646   Data:  60 41 00 20
TA454 004:258.651 - 0.016ms returns 4 (0x4)
T55DC 004:259.007 JLINK_ReadMemEx(0x200040D4, 0x4 Bytes, Flags = 0x02000000)
T55DC 004:259.022   CPU_ReadMem(64 bytes @ 0x200040C0)
T55DC 004:259.475    -- Updating C cache (64 bytes @ 0x200040C0)
T55DC 004:259.481    -- Read from C cache (4 bytes @ 0x200040D4)
T55DC 004:259.487   Data:  83 45 00 08
T55DC 004:259.493 - 0.486ms returns 4 (0x4)
T55DC 004:259.501 JLINK_ReadMemEx(0x200040CC, 0x4 Bytes, Flags = 0x02000000)
T55DC 004:259.506    -- Read from C cache (4 bytes @ 0x200040CC)
T55DC 004:259.511   Data:  D7 03 00 00
T55DC 004:259.517 - 0.015ms returns 4 (0x4)
T55DC 004:259.521 JLINK_ReadMemEx(0x200040D0, 0x4 Bytes, Flags = 0x02000000)
T55DC 004:259.525    -- Read from C cache (4 bytes @ 0x200040D0)
T55DC 004:259.530   Data:  E5 94 01 08
T55DC 004:259.535 - 0.014ms returns 4 (0x4)
T55DC 004:259.540 JLINK_ReadMemEx(0x200040D4, 0x4 Bytes, Flags = 0x02000000)
T55DC 004:259.543    -- Read from C cache (4 bytes @ 0x200040D4)
T55DC 004:259.549   Data:  83 45 00 08
T55DC 004:259.553 - 0.014ms returns 4 (0x4)
T55DC 004:259.559 JLINK_ReadMemEx(0x20004134, 0x4 Bytes, Flags = 0x02000000)
T55DC 004:259.564   CPU_ReadMem(64 bytes @ 0x20004100)
T55DC 004:259.995    -- Updating C cache (64 bytes @ 0x20004100)
T55DC 004:260.001    -- Read from C cache (4 bytes @ 0x20004134)
T55DC 004:260.005   Data:  F9 44 00 08
T55DC 004:260.010 - 0.451ms returns 4 (0x4)
T55DC 004:260.016 JLINK_ReadMemEx(0x20004114, 0x4 Bytes, Flags = 0x02000000)
T55DC 004:260.020    -- Read from C cache (4 bytes @ 0x20004114)
T55DC 004:260.025   Data:  D7 03 00 00
T55DC 004:260.029 - 0.013ms returns 4 (0x4)
T55DC 004:260.033 JLINK_ReadMemEx(0x20004118, 0x4 Bytes, Flags = 0x02000000)
T55DC 004:260.037    -- Read from C cache (4 bytes @ 0x20004118)
T55DC 004:260.041   Data:  A5 A5 A5 A5
T55DC 004:260.046 - 0.012ms returns 4 (0x4)
T55DC 004:260.050 JLINK_ReadMemEx(0x2000411C, 0x4 Bytes, Flags = 0x02000000)
T55DC 004:260.054    -- Read from C cache (4 bytes @ 0x2000411C)
T55DC 004:260.058   Data:  A5 A5 A5 A5
T55DC 004:260.063 - 0.013ms returns 4 (0x4)
T55DC 004:260.067 JLINK_ReadMemEx(0x20004120, 0x4 Bytes, Flags = 0x02000000)
T55DC 004:260.071    -- Read from C cache (4 bytes @ 0x20004120)
T55DC 004:260.079   Data:  A5 A5 A5 A5
T55DC 004:260.084 - 0.017ms returns 4 (0x4)
T55DC 004:260.088 JLINK_ReadMemEx(0x20004124, 0x4 Bytes, Flags = 0x02000000)
T55DC 004:260.091    -- Read from C cache (4 bytes @ 0x20004124)
T55DC 004:260.096   Data:  A5 A5 A5 A5
T55DC 004:260.101 - 0.012ms returns 4 (0x4)
T55DC 004:260.105 JLINK_ReadMemEx(0x20004128, 0x4 Bytes, Flags = 0x02000000)
T55DC 004:260.108    -- Read from C cache (4 bytes @ 0x20004128)
T55DC 004:260.113   Data:  A5 A5 A5 A5
T55DC 004:260.117 - 0.012ms returns 4 (0x4)
T55DC 004:260.121 JLINK_ReadMemEx(0x2000412C, 0x4 Bytes, Flags = 0x02000000)
T55DC 004:260.125    -- Read from C cache (4 bytes @ 0x2000412C)
T55DC 004:260.129   Data:  A5 A5 A5 A5
T55DC 004:260.134 - 0.012ms returns 4 (0x4)
T55DC 004:260.138 JLINK_ReadMemEx(0x20004130, 0x4 Bytes, Flags = 0x02000000)
T55DC 004:260.141    -- Read from C cache (4 bytes @ 0x20004130)
T55DC 004:260.146   Data:  A5 A5 A5 A5
T55DC 004:260.151 - 0.013ms returns 4 (0x4)
T55DC 004:260.155 JLINK_ReadMemEx(0x20004134, 0x4 Bytes, Flags = 0x02000000)
T55DC 004:260.158    -- Read from C cache (4 bytes @ 0x20004134)
T55DC 004:260.163   Data:  F9 44 00 08
T55DC 004:260.168 - 0.012ms returns 4 (0x4)
T55DC 004:260.172 JLINK_ReadMemEx(0x2000413C, 0x4 Bytes, Flags = 0x02000000)
T55DC 004:260.176    -- Read from C cache (4 bytes @ 0x2000413C)
T55DC 004:260.181   Data:  C5 94 01 08
T55DC 004:260.185 - 0.013ms returns 4 (0x4)
T55DC 004:260.191 JLINK_ReadMemEx(0x20004138, 0x4 Bytes, Flags = 0x02000000)
T55DC 004:260.194    -- Read from C cache (4 bytes @ 0x20004138)
T55DC 004:260.199   Data:  D7 03 00 00
T55DC 004:260.203 - 0.012ms returns 4 (0x4)
T55DC 004:260.207 JLINK_ReadMemEx(0x2000413C, 0x4 Bytes, Flags = 0x02000000)
